
T08F4 000:341 SEGGER J-Link V4.40c Log File (0001ms, 0339ms total)
T08F4 000:341 DLL Compiled: Jan 24 2012 09:30:33 (0001ms, 0339ms total)
T08F4 000:341 Logging started @ 2017-07-26 13:15 (0001ms, 0339ms total)
T08F4 000:342 JLINK_SetWarnOutHandler(...) (0000ms, 0340ms total)
T08F4 000:342 JLINK_OpenEx(...)
Firmware: J-Link ARM V8 compiled Nov 28 2014 13:44:46
Hardware: V8.00
S/N: 1499664905
Feature(s): RDI,FlashDL,FlashBP,JFlash,GDBFull  returns O.K. (0133ms, 0340ms total)
T08F4 000:475 JLINK_SetErrorOutHandler(...) (0000ms, 0473ms total)
T08F4 000:475 JLINK_ExecCommand("Device = STM32F051K6", ...)  returns 0x00 (0000ms, 0473ms total)
T08F4 000:475 JLINK_ExecCommand("ProjectFile = "E:\iTouch 96\Soozan & Jahan Shargh\Keil\RefDisp Digital 2\Proj\JLinkSettings.ini"", ...)  returns 0x00 (0000ms, 0473ms total)
T08F4 000:480 JLINK_ExecCommand("DisableConnectionTimeout", ...)  returns 0x00 (0000ms, 0473ms total)
T08F4 000:483 JLINK_TIF_Select(JLINKARM_TIF_SWD)  returns 0x00 (0005ms, 0473ms total)
T08F4 000:488 JLINK_SetSpeed(2000) (0001ms, 0478ms total)
T08F4 000:489 JLINK_GetHardwareVersion()  returns 0x13880 (0000ms, 0479ms total)
T08F4 000:489 JLINK_GetDLLVersion()  returns 44003 (0000ms, 0479ms total)
T08F4 000:489 JLINK_GetFirmwareString(...) (0000ms, 0479ms total)
T08F4 000:492 JLINK_GetDLLVersion()  returns 44003 (0000ms, 0479ms total)
T08F4 000:492 JLINK_GetCompileDateTime() (0000ms, 0479ms total)
T08F4 000:492 JLINK_GetFirmwareString(...) (0000ms, 0479ms total)
T08F4 000:493 JLINK_GetHardwareVersion()  returns 0x13880 (0000ms, 0480ms total)
T08F4 000:497 JLINK_GetId() >0x108 TIF>Found SWD-DP with ID 0x0BB11477 >0x33 TIF> >0x33 TIF> >0x35 TIF> >0x33 TIF> >0x33 TIF> >0x35 TIF> >0x33 TIF> >0x33 TIF> >0x35 TIF> >0x33 TIF> >0x33 TIF> >0x35 TIF> >0x33 TIF> >0x33 TIF> >0x35 TIF> >0x35 TIF> >0x35 TIF> >0x35 TIF> >0x35 TIF> >0x33 TIF> >0x33 TIF> >0x35 TIF> >0x35 TIF> >0x35 TIF> >0x33 TIF> >0x33 TIF> >0x33 TIF> >0x35 TIF> >0x33 TIF> >0x33 TIF> >0x35 TIF> >0x33 TIF> >0x33 TIF>  FPUnit: 4 code (BP) slots and 0 literal slots >0x35 TIF> >0x33 TIF>
 >0x33 TIF> >0x35 TIF> >0x35 TIF> >0x35 TIF> >0x33 TIF> >0x33 TIF> >0x35 TIF> >0x33 TIF> >0x33 TIF> >0x35 TIF> >0x33 TIF> >0x33 TIF>Found Cortex-M0 r0p0, Little endian. >0x33 TIF>  returns 0x0BB11477 (0055ms, 0480ms total)
T08F4 000:552 JLINK_GetDebugInfo(0x100) -- Value=0xE00FF003  returns 0x00 (0000ms, 0535ms total)
T08F4 000:553 JLINK_ReadMem (0xE00FFFF0, 0x0010 Bytes, ...) -- CPU is running -- CPU_ReadMem(16 bytes @ 0xE00FFFF0) -- Data:  0D 00 00 00 10 00 00 00 05 00 00 00 B1 00 00 00  returns 0x00 (0001ms, 0535ms total)
T08F4 000:554 JLINK_ReadMem (0xE00FFFD0, 0x0020 Bytes, ...) -- CPU is running -- CPU_ReadMem(32 bytes @ 0xE00FFFD0) -- Data:  00 00 00 00 00 00 00 00 00 00 00 00 00 00 00 00 ...  returns 0x00 (0001ms, 0536ms total)
T08F4 000:555 JLINK_ReadMem (0xE00FF000, 0x0018 Bytes, ...) -- CPU is running -- CPU_ReadMem(24 bytes @ 0xE00FF000) -- Data:  03 F0 F0 FF 03 20 F0 FF 03 30 F0 FF 00 00 00 00 ...  returns 0x00 (0001ms, 0537ms total)
T08F4 000:556 JLINK_ReadMemU32(0xE000ED00, 0x0001 Items, ...) -- CPU is running -- CPU_ReadMem(4 bytes @ 0xE000ED00) -- Data:  00 C2 0C 41  returns 0x01 (0001ms, 0538ms total)
T08F4 000:557 JLINK_SetResetType(JLINKARM_RESET_TYPE_NORMAL)  returns JLINKARM_RESET_TYPE_NORMAL (0000ms, 0539ms total)
T08F4 000:557 JLINK_Reset() >0x108 TIF>Found SWD-DP with ID 0x0BB11477 >0x33 TIF> >0x33 TIF> >0x35 TIF> >0x33 TIF> >0x35 TIF> >0x33 TIF> >0x33 TIF> >0x35 TIF> >0x33 TIF> >0x33 TIF> >0x35 TIF> >0x33 TIF> >0x33 TIF> >0x35 TIF> >0x33 TIF> >0x33 TIF> >0x35 TIF> >0x35 TIF> >0x35 TIF> >0x35 TIF> >0x35 TIF> >0x33 TIF> >0x33 TIF> >0x35 TIF> >0x33 TIF> >0x33 TIF> >0x33 TIF> >0x35 TIF> >0x33 TIF> >0x33 TIF> >0x35 TIF> >0x33 TIF> >0x33 TIF>  FPUnit: 4 code (BP) slots and 0 literal slots >0x35 TIF> >0x33 TIF>
 >0x33 TIF> >0x35 TIF> >0x33 TIF> >0x33 TIF> >0x35 TIF> >0x33 TIF> >0x33 TIF> >0x35 TIF> >0x33 TIF> >0x33 TIF>Found Cortex-M0 r0p0, Little endian. -- CPU is running -- CPU_WriteMem(4 bytes @ 0xE000EDF0) -- CPU is running -- CPU_WriteMem(4 bytes @ 0xE000EDFC) >0x35 TIF> -- CPU is running -- CPU_WriteMem(4 bytes @ 0xE000ED0C) -- CPU is running -- CPU_ReadMem(4 bytes @ 0xE000EDF0) -- CPU is running -- CPU_ReadMem(4 bytes @ 0xE000EDF0) -- CPU is running -- CPU_ReadMem(4 bytes @ 0xE000EDF0) -- CPU is running
 -- CPU_ReadMem(4 bytes @ 0xE000EDF0) -- CPU is running -- CPU_ReadMem(4 bytes @ 0xE000EDF0) -- CPU is running -- CPU_ReadMem(4 bytes @ 0xE000EDF0) -- CPU is running -- CPU_ReadMem(4 bytes @ 0xE000EDF0) -- CPU is running -- CPU_ReadMem(4 bytes @ 0xE000EDF0) -- CPU is running -- CPU_ReadMem(4 bytes @ 0xE000EDF0) -- CPU is running -- CPU_ReadMem(4 bytes @ 0xE000EDF0) -- CPU is running -- CPU_ReadMem(4 bytes @ 0xE000EDF0) -- CPU is running -- CPU_ReadMem(4 bytes @ 0xE000EDF0) -- CPU is running
 -- CPU_ReadMem(4 bytes @ 0xE000EDF0) -- CPU is running -- CPU_ReadMem(4 bytes @ 0xE000EDF0) -- CPU is running -- CPU_ReadMem(4 bytes @ 0xE000EDF0) -- CPU is running -- CPU_ReadMem(4 bytes @ 0xE000EDF0) -- CPU is running -- CPU_ReadMem(4 bytes @ 0xE000EDF0) -- CPU is running -- CPU_ReadMem(4 bytes @ 0xE000EDF0) -- CPU is running -- CPU_ReadMem(4 bytes @ 0xE000EDF0) -- CPU is running -- CPU_ReadMem(4 bytes @ 0xE000EDF0) -- CPU is running -- CPU_ReadMem(4 bytes @ 0xE000EDF0) -- CPU is running
 -- CPU_ReadMem(4 bytes @ 0xE000EDF0) -- CPU is running -- CPU_ReadMem(4 bytes @ 0xE000EDF0) -- CPU is running -- CPU_ReadMem(4 bytes @ 0xE000EDF0) -- CPU is running -- CPU_ReadMem(4 bytes @ 0xE000EDF0) -- CPU is running -- CPU_ReadMem(4 bytes @ 0xE000EDF0) -- CPU is running -- CPU_ReadMem(4 bytes @ 0xE000EDF0) -- CPU is running -- CPU_ReadMem(4 bytes @ 0xE000EDF0) -- CPU is running -- CPU_ReadMem(4 bytes @ 0xE000EDF0) -- CPU is running -- CPU_ReadMem(4 bytes @ 0xE000EDF0) -- CPU is running
 -- CPU_ReadMem(4 bytes @ 0xE000EDF0) -- CPU is running -- CPU_ReadMem(4 bytes @ 0xE000EDF0) -- CPU is running -- CPU_ReadMem(4 bytes @ 0xE000EDF0) -- CPU is running -- CPU_ReadMem(4 bytes @ 0xE000EDF0) -- CPU is running -- CPU_ReadMem(4 bytes @ 0xE000EDF0) -- CPU is running -- CPU_ReadMem(4 bytes @ 0xE000EDF0) -- CPU is running -- CPU_ReadMem(4 bytes @ 0xE000EDF0) -- CPU is running -- CPU_ReadMem(4 bytes @ 0xE000EDF0) -- CPU is running -- CPU_ReadMem(4 bytes @ 0xE000EDF0) -- CPU is running
 -- CPU_ReadMem(4 bytes @ 0xE000EDF0) -- CPU is running -- CPU_ReadMem(4 bytes @ 0xE000EDF0) -- CPU is running -- CPU_ReadMem(4 bytes @ 0xE000EDF0) -- CPU is running -- CPU_ReadMem(4 bytes @ 0xE000EDF0) -- CPU is running -- CPU_ReadMem(4 bytes @ 0xE000EDF0) -- CPU is running -- CPU_ReadMem(4 bytes @ 0xE000EDF0) -- CPU is running -- CPU_ReadMem(4 bytes @ 0xE000EDF0) -- CPU is running -- CPU_ReadMem(4 bytes @ 0xE000EDF0) -- CPU is running -- CPU_ReadMem(4 bytes @ 0xE000EDF0) -- CPU is running
 -- CPU_ReadMem(4 bytes @ 0xE000EDF0) -- CPU is running -- CPU_ReadMem(4 bytes @ 0xE000EDF0) -- CPU is running -- CPU_ReadMem(4 bytes @ 0xE000EDF0) -- CPU is running -- CPU_ReadMem(4 bytes @ 0xE000EDF0) -- CPU is running -- CPU_ReadMem(4 bytes @ 0xE000EDF0) -- CPU is running -- CPU_ReadMem(4 bytes @ 0xE000EDF0) -- CPU is running -- CPU_ReadMem(4 bytes @ 0xE000EDF0) -- CPU is running -- CPU_ReadMem(4 bytes @ 0xE000EDF0) -- CPU is running -- CPU_ReadMem(4 bytes @ 0xE000EDF0) -- CPU is running
 -- CPU_ReadMem(4 bytes @ 0xE000EDF0) -- CPU is running -- CPU_ReadMem(4 bytes @ 0xE000EDF0) -- CPU is running -- CPU_ReadMem(4 bytes @ 0xE000EDF0) -- CPU is running -- CPU_ReadMem(4 bytes @ 0xE000EDF0) -- CPU is running -- CPU_ReadMem(4 bytes @ 0xE000EDF0) -- CPU is running -- CPU_ReadMem(4 bytes @ 0xE000EDF0) -- CPU is running -- CPU_ReadMem(4 bytes @ 0xE000EDF0) -- CPU is running -- CPU_ReadMem(4 bytes @ 0xE000EDF0) -- CPU is running -- CPU_ReadMem(4 bytes @ 0xE000EDF0) -- CPU is running
 -- CPU_ReadMem(4 bytes @ 0xE000EDF0) -- CPU is running -- CPU_ReadMem(4 bytes @ 0xE000EDF0) -- CPU is running -- CPU_ReadMem(4 bytes @ 0xE000EDF0) -- CPU is running -- CPU_ReadMem(4 bytes @ 0xE000EDF0) -- CPU is running -- CPU_ReadMem(4 bytes @ 0xE000EDF0) -- CPU is running -- CPU_ReadMem(4 bytes @ 0xE000EDF0) -- CPU is running -- CPU_ReadMem(4 bytes @ 0xE000EDF0) -- CPU is running -- CPU_ReadMem(4 bytes @ 0xE000EDF0) -- CPU is running -- CPU_ReadMem(4 bytes @ 0xE000EDF0) -- CPU is running
 -- CPU_ReadMem(4 bytes @ 0xE000EDF0) -- CPU is running -- CPU_ReadMem(4 bytes @ 0xE000EDF0) -- CPU is running -- CPU_ReadMem(4 bytes @ 0xE000EDF0) -- CPU is running -- CPU_ReadMem(4 bytes @ 0xE000EDF0) -- CPU is running -- CPU_ReadMem(4 bytes @ 0xE000EDF0) -- CPU is running -- CPU_ReadMem(4 bytes @ 0xE000EDF0) -- CPU is running -- CPU_ReadMem(4 bytes @ 0xE000EDF0) -- CPU is running -- CPU_ReadMem(4 bytes @ 0xE000EDF0) -- CPU is running -- CPU_ReadMem(4 bytes @ 0xE000EDF0) -- CPU is running
 -- CPU_ReadMem(4 bytes @ 0xE000EDF0) -- CPU is running -- CPU_ReadMem(4 bytes @ 0xE000EDF0) -- CPU is running -- CPU_ReadMem(4 bytes @ 0xE000EDF0) -- CPU is running -- CPU_ReadMem(4 bytes @ 0xE000EDF0) -- CPU is running -- CPU_ReadMem(4 bytes @ 0xE000EDF0) -- CPU is running -- CPU_ReadMem(4 bytes @ 0xE000EDF0) -- CPU is running -- CPU_ReadMem(4 bytes @ 0xE000EDF0) -- CPU is running -- CPU_ReadMem(4 bytes @ 0xE000EDF0) -- CPU is running -- CPU_ReadMem(4 bytes @ 0xE000EDF0) -- CPU is running
 -- CPU_ReadMem(4 bytes @ 0xE000EDF0) -- CPU is running -- CPU_ReadMem(4 bytes @ 0xE000EDF0) -- CPU is running -- CPU_ReadMem(4 bytes @ 0xE000EDF0) -- CPU is running -- CPU_ReadMem(4 bytes @ 0xE000EDF0) -- CPU is running -- CPU_ReadMem(4 bytes @ 0xE000EDF0) -- CPU is running -- CPU_ReadMem(4 bytes @ 0xE000EDF0) -- CPU is running -- CPU_ReadMem(4 bytes @ 0xE000EDF0) -- CPU is running -- CPU_ReadMem(4 bytes @ 0xE000EDF0) -- CPU is running -- CPU_ReadMem(4 bytes @ 0xE000EDF0) -- CPU is running
 -- CPU_ReadMem(4 bytes @ 0xE000EDF0) -- CPU is running -- CPU_ReadMem(4 bytes @ 0xE000EDF0) -- CPU is running -- CPU_ReadMem(4 bytes @ 0xE000EDF0) -- CPU is running -- CPU_ReadMem(4 bytes @ 0xE000EDF0) -- CPU is running -- CPU_ReadMem(4 bytes @ 0xE000EDF0) -- CPU is running -- CPU_ReadMem(4 bytes @ 0xE000EDF0) -- CPU is running -- CPU_ReadMem(4 bytes @ 0xE000EDF0) -- CPU is running -- CPU_ReadMem(4 bytes @ 0xE000EDF0) -- CPU is running -- CPU_ReadMem(4 bytes @ 0xE000EDF0) -- CPU is running
 -- CPU_ReadMem(4 bytes @ 0xE000EDF0) -- CPU is running -- CPU_ReadMem(4 bytes @ 0xE000EDF0) -- CPU is running -- CPU_ReadMem(4 bytes @ 0xE000EDF0) -- CPU is running -- CPU_ReadMem(4 bytes @ 0xE000EDF0) -- CPU is running -- CPU_ReadMem(4 bytes @ 0xE000EDF0) -- CPU is running -- CPU_ReadMem(4 bytes @ 0xE000EDF0) -- CPU is running -- CPU_ReadMem(4 bytes @ 0xE000EDF0) -- CPU is running -- CPU_ReadMem(4 bytes @ 0xE000EDF0) -- CPU is running -- CPU_ReadMem(4 bytes @ 0xE000EDF0) -- CPU is running
 -- CPU_ReadMem(4 bytes @ 0xE000EDF0) -- CPU is running -- CPU_ReadMem(4 bytes @ 0xE000EDF0) -- CPU is running -- CPU_ReadMem(4 bytes @ 0xE000EDF0) -- CPU is running -- CPU_ReadMem(4 bytes @ 0xE000EDF0) -- CPU is running -- CPU_ReadMem(4 bytes @ 0xE000EDF0) -- CPU is running -- CPU_ReadMem(4 bytes @ 0xE000EDF0) -- CPU is running -- CPU_ReadMem(4 bytes @ 0xE000EDF0) -- CPU is running -- CPU_ReadMem(4 bytes @ 0xE000EDF0) -- CPU is running -- CPU_ReadMem(4 bytes @ 0xE000EDF0) -- CPU is running
 -- CPU_ReadMem(4 bytes @ 0xE000EDF0) -- CPU is running -- CPU_ReadMem(4 bytes @ 0xE000EDF0) -- CPU is running -- CPU_ReadMem(4 bytes @ 0xE000EDF0) -- CPU is running -- CPU_ReadMem(4 bytes @ 0xE000EDF0) -- CPU is running -- CPU_ReadMem(4 bytes @ 0xE000EDF0) -- CPU is running -- CPU_ReadMem(4 bytes @ 0xE000EDF0) -- CPU is running -- CPU_ReadMem(4 bytes @ 0xE000EDF0) -- CPU is running -- CPU_ReadMem(4 bytes @ 0xE000EDF0) -- CPU is running -- CPU_ReadMem(4 bytes @ 0xE000EDF0) -- CPU is running
 -- CPU_ReadMem(4 bytes @ 0xE000EDF0) -- CPU is running -- CPU_ReadMem(4 bytes @ 0xE000EDF0) -- CPU is running -- CPU_ReadMem(4 bytes @ 0xE000EDF0) -- CPU is running -- CPU_ReadMem(4 bytes @ 0xE000EDF0) -- CPU is running -- CPU_ReadMem(4 bytes @ 0xE000EDF0) -- CPU is running -- CPU_ReadMem(4 bytes @ 0xE000EDF0) -- CPU is running -- CPU_ReadMem(4 bytes @ 0xE000EDF0) -- CPU is running -- CPU_ReadMem(4 bytes @ 0xE000EDF0) -- CPU is running -- CPU_ReadMem(4 bytes @ 0xE000EDF0) -- CPU is running
 -- CPU_ReadMem(4 bytes @ 0xE000EDF0) -- CPU is running -- CPU_ReadMem(4 bytes @ 0xE000EDF0) -- CPU is running -- CPU_ReadMem(4 bytes @ 0xE000EDF0) -- CPU is running -- CPU_ReadMem(4 bytes @ 0xE000EDF0) -- CPU is running -- CPU_ReadMem(4 bytes @ 0xE000EDF0) -- CPU is running -- CPU_ReadMem(4 bytes @ 0xE000EDF0) -- CPU is running -- CPU_ReadMem(4 bytes @ 0xE000EDF0) -- CPU is running -- CPU_ReadMem(4 bytes @ 0xE000EDF0) -- CPU is running -- CPU_ReadMem(4 bytes @ 0xE000EDF0) -- CPU is running
 -- CPU_ReadMem(4 bytes @ 0xE000EDF0) -- CPU is running -- CPU_ReadMem(4 bytes @ 0xE000EDF0) -- CPU is running -- CPU_ReadMem(4 bytes @ 0xE000EDF0) -- CPU is running -- CPU_ReadMem(4 bytes @ 0xE000EDF0) -- CPU is running -- CPU_ReadMem(4 bytes @ 0xE000EDF0) -- CPU is running -- CPU_ReadMem(4 bytes @ 0xE000EDF0) -- CPU is running -- CPU_ReadMem(4 bytes @ 0xE000EDF0) -- CPU is running -- CPU_ReadMem(4 bytes @ 0xE000EDF0) -- CPU is running -- CPU_ReadMem(4 bytes @ 0xE000EDF0) -- CPU is running
 -- CPU_ReadMem(4 bytes @ 0xE000EDF0) -- CPU is running -- CPU_ReadMem(4 bytes @ 0xE000EDF0) -- CPU is running -- CPU_ReadMem(4 bytes @ 0xE000EDF0) -- CPU is running -- CPU_ReadMem(4 bytes @ 0xE000EDF0) -- CPU is running -- CPU_ReadMem(4 bytes @ 0xE000EDF0) -- CPU is running -- CPU_ReadMem(4 bytes @ 0xE000EDF0) -- CPU is running -- CPU_ReadMem(4 bytes @ 0xE000EDF0) -- CPU is running -- CPU_ReadMem(4 bytes @ 0xE000EDF0) -- CPU is running -- CPU_ReadMem(4 bytes @ 0xE000EDF0) -- CPU is running
 -- CPU_ReadMem(4 bytes @ 0xE000EDF0) -- CPU is running -- CPU_ReadMem(4 bytes @ 0xE000EDF0) -- CPU is running -- CPU_ReadMem(4 bytes @ 0xE000EDF0) -- CPU is running -- CPU_ReadMem(4 bytes @ 0xE000EDF0) -- CPU is running -- CPU_ReadMem(4 bytes @ 0xE000EDF0) -- CPU is running -- CPU_ReadMem(4 bytes @ 0xE000EDF0) -- CPU is running -- CPU_ReadMem(4 bytes @ 0xE000EDF0) -- CPU is running -- CPU_ReadMem(4 bytes @ 0xE000EDF0) -- CPU is running -- CPU_ReadMem(4 bytes @ 0xE000EDF0) -- CPU is running
 -- CPU_ReadMem(4 bytes @ 0xE000EDF0) -- CPU is running -- CPU_ReadMem(4 bytes @ 0xE000EDF0) -- CPU is running -- CPU_ReadMem(4 bytes @ 0xE000EDF0) -- CPU is running -- CPU_ReadMem(4 bytes @ 0xE000EDF0) -- CPU is running -- CPU_ReadMem(4 bytes @ 0xE000EDF0) -- CPU is running -- CPU_ReadMem(4 bytes @ 0xE000EDF0) -- CPU is running -- CPU_ReadMem(4 bytes @ 0xE000EDF0) -- CPU is running -- CPU_ReadMem(4 bytes @ 0xE000EDF0) -- CPU is running -- CPU_ReadMem(4 bytes @ 0xE000EDF0) -- CPU is running
 -- CPU_ReadMem(4 bytes @ 0xE000EDF0) -- CPU is running -- CPU_ReadMem(4 bytes @ 0xE000EDF0) -- CPU is running -- CPU_ReadMem(4 bytes @ 0xE000EDF0) -- CPU is running -- CPU_ReadMem(4 bytes @ 0xE000EDF0) -- CPU is running -- CPU_ReadMem(4 bytes @ 0xE000EDF0) -- CPU is running -- CPU_ReadMem(4 bytes @ 0xE000EDF0) -- CPU is running -- CPU_ReadMem(4 bytes @ 0xE000EDF0) -- CPU is running -- CPU_ReadMem(4 bytes @ 0xE000EDF0) -- CPU is running -- CPU_ReadMem(4 bytes @ 0xE000EDF0) -- CPU is running
 -- CPU_ReadMem(4 bytes @ 0xE000EDF0) -- CPU is running -- CPU_ReadMem(4 bytes @ 0xE000EDF0) -- CPU is running -- CPU_ReadMem(4 bytes @ 0xE000EDF0) -- CPU is running -- CPU_ReadMem(4 bytes @ 0xE000EDF0) -- CPU is running -- CPU_ReadMem(4 bytes @ 0xE000EDF0) -- CPU is running -- CPU_ReadMem(4 bytes @ 0xE000EDF0) -- CPU is running -- CPU_ReadMem(4 bytes @ 0xE000EDF0) -- CPU is running -- CPU_ReadMem(4 bytes @ 0xE000EDF0) -- CPU is running -- CPU_ReadMem(4 bytes @ 0xE000EDF0) -- CPU is running
 -- CPU_ReadMem(4 bytes @ 0xE000EDF0) -- CPU is running -- CPU_ReadMem(4 bytes @ 0xE000EDF0) -- CPU is running -- CPU_ReadMem(4 bytes @ 0xE000EDF0) -- CPU is running -- CPU_ReadMem(4 bytes @ 0xE000EDF0) -- CPU is running -- CPU_ReadMem(4 bytes @ 0xE000EDF0) -- CPU is running -- CPU_ReadMem(4 bytes @ 0xE000EDF0) -- CPU is running -- CPU_ReadMem(4 bytes @ 0xE000EDF0) -- CPU is running -- CPU_ReadMem(4 bytes @ 0xE000EDF0) -- CPU is running -- CPU_ReadMem(4 bytes @ 0xE000EDF0) -- CPU is running
 -- CPU_WriteMem(4 bytes @ 0xE000EDF0) -- CPU is running -- CPU_WriteMem(4 bytes @ 0xE000EDFC) -- CPU is running -- CPU_ReadMem(4 bytes @ 0xE000EDF0) (0293ms, 0539ms total)
T08F4 000:850 JLINK_Halt()  returns 0x00 (0000ms, 0832ms total)
T08F4 000:850 JLINK_IsHalted()  returns TRUE (0000ms, 0832ms total)
T08F4 000:850 JLINK_ReadMemU32(0xE000EDF0, 0x0001 Items, ...) -- CPU_ReadMem(4 bytes @ 0xE000EDF0) -- Data:  03 00 03 00  returns 0x01 (0001ms, 0832ms total)
T08F4 000:851 JLINK_WriteU32(0xE000EDF0, 0xA05F0003) -- CPU_WriteMem(4 bytes @ 0xE000EDF0)  returns 0x00 (0001ms, 0833ms total)
T08F4 000:852 JLINK_WriteU32(0xE000EDFC, 0x01000000) -- CPU_WriteMem(4 bytes @ 0xE000EDFC)  returns 0x00 (0001ms, 0834ms total)
T08F4 000:865 JLINK_GetHWStatus(...)  returns 0x00 (0001ms, 0835ms total)
T08F4 000:875 JLINK_GetNumBPUnits(Type = 0xFFFFFF00)  returns 0x04 (0000ms, 0836ms total)
T08F4 000:875 JLINK_GetNumBPUnits(Type = 0xF0)  returns 0x2000 (0000ms, 0836ms total)
T08F4 000:875 JLINK_GetNumWPUnits()  returns 0x02 (0000ms, 0836ms total)
T08F4 000:884 JLINK_GetSpeed()  returns 0x7D0 (0000ms, 0836ms total)
T08F4 000:889 JLINK_ReadMemU32(0xE000E004, 0x0001 Items, ...) -- CPU_ReadMem(4 bytes @ 0xE000E004) -- Data:  00 00 00 00  returns 0x01 (0002ms, 0836ms total)
T08F4 000:891 JLINK_Halt()  returns 0x00 (0000ms, 0838ms total)
T08F4 000:891 JLINK_IsHalted()  returns TRUE (0000ms, 0838ms total)
T08F4 000:894 JLINK_WriteMem(0x20000000, 0x0170 Bytes, ...) -- Data:  00 BE 0A E0 0D 78 2D 06 68 40 08 24 40 00 00 D3 ... -- CPU_WriteMem(368 bytes @ 0x20000000)  returns 0x170 (0005ms, 0838ms total)
T08F4 000:899 JLINK_WriteReg(R0, 0x08000000)  returns 0x00 (0000ms, 0843ms total)
T08F4 000:899 JLINK_WriteReg(R1, 0x007A1200)  returns 0x00 (0000ms, 0843ms total)
T08F4 000:899 JLINK_WriteReg(R2, 0x00000001)  returns 0x00 (0000ms, 0843ms total)
T08F4 000:899 JLINK_WriteReg(R3, 0x00000000)  returns 0x00 (0000ms, 0843ms total)
T08F4 000:899 JLINK_WriteReg(R4, 0x00000000)  returns 0x00 (0000ms, 0843ms total)
T08F4 000:899 JLINK_WriteReg(R5, 0x00000000)  returns 0x00 (0000ms, 0843ms total)
T08F4 000:899 JLINK_WriteReg(R6, 0x00000000)  returns 0x00 (0001ms, 0843ms total)
T08F4 000:900 JLINK_WriteReg(R7, 0x00000000)  returns 0x00 (0000ms, 0844ms total)
T08F4 000:900 JLINK_WriteReg(R8, 0x00000000)  returns 0x00 (0000ms, 0844ms total)
T08F4 000:900 JLINK_WriteReg(R9, 0x2000016C)  returns 0x00 (0000ms, 0844ms total)
T08F4 000:900 JLINK_WriteReg(R10, 0x00000000)  returns 0x00 (0000ms, 0844ms total)
T08F4 000:900 JLINK_WriteReg(R11, 0x00000000)  returns 0x00 (0000ms, 0844ms total)
T08F4 000:900 JLINK_WriteReg(R12, 0x00000000)  returns 0x00 (0000ms, 0844ms total)
T08F4 000:900 JLINK_WriteReg(R13, 0x20000800)  returns 0x00 (0000ms, 0844ms total)
T08F4 000:900 JLINK_WriteReg(R14, 0x20000001)  returns 0x00 (0000ms, 0844ms total)
T08F4 000:900 JLINK_WriteReg(R15, 0x20000038)  returns 0x00 (0000ms, 0844ms total)
T08F4 000:900 JLINK_WriteReg(XPSR, 0x01000000)  returns 0x00 (0000ms, 0844ms total)
T08F4 000:900 JLINK_WriteReg(MSP, 0x20000800)  returns 0x00 (0000ms, 0844ms total)
T08F4 000:900 JLINK_WriteReg(PSP, 0x20000800)  returns 0x00 (0000ms, 0844ms total)
T08F4 000:900 JLINK_WriteReg(CFBP, 0x00000000)  returns 0x00 (0000ms, 0844ms total)
T08F4 000:900 JLINK_SetBPEx(Addr = 0x20000000, Type = 0xFFFFFFF2) -- CPU_ReadMem(4 bytes @ 0x20000000) -- CPU_WriteMem(4 bytes @ 0x20000000) -- CPU_ReadMem(4 bytes @ 0x20000000) -- CPU_WriteMem(4 bytes @ 0x20000000) -- CPU_ReadMem(2 bytes @ 0x20000000)  returns 0x00000001 (0005ms, 0844ms total)
T08F4 000:905 JLINK_Go() -- CPU_WriteMem(2 bytes @ 0x20000000) -- CPU_WriteMem(4 bytes @ 0xE0002008) -- CPU_WriteMem(4 bytes @ 0xE000200C) -- CPU_WriteMem(4 bytes @ 0xE0002010) -- CPU_WriteMem(4 bytes @ 0xE0002014) (0011ms, 0849ms total)
T08F4 000:916 JLINK_IsHalted() -- CPU_ReadMem(2 bytes @ 0x20000000)  returns TRUE (0005ms, 0860ms total)
T08F4 000:921 JLINK_ReadReg(R15)  returns 0x20000000 (0000ms, 0860ms total)
T08F4 000:921 JLINK_ClrBPEx(BPHandle = 0x00000001)  returns 0x00 (0000ms, 0860ms total)
T08F4 000:921 JLINK_ReadReg(R0)  returns 0x00000000 (0000ms, 0860ms total)
T08F4 000:921 JLINK_WriteReg(R0, 0x08000000)  returns 0x00 (0000ms, 0860ms total)
T08F4 000:921 JLINK_WriteReg(R1, 0x007A1200)  returns 0x00 (0000ms, 0860ms total)
T08F4 000:921 JLINK_WriteReg(R2, 0x00000001)  returns 0x00 (0000ms, 0860ms total)
T08F4 000:921 JLINK_WriteReg(R3, 0x00000000)  returns 0x00 (0000ms, 0860ms total)
T08F4 000:921 JLINK_WriteReg(R4, 0x00000000)  returns 0x00 (0000ms, 0860ms total)
T08F4 000:921 JLINK_WriteReg(R5, 0x00000000)  returns 0x00 (0000ms, 0860ms total)
T08F4 000:921 JLINK_WriteReg(R6, 0x00000000)  returns 0x00 (0000ms, 0860ms total)
T08F4 000:921 JLINK_WriteReg(R7, 0x00000000)  returns 0x00 (0000ms, 0860ms total)
T08F4 000:921 JLINK_WriteReg(R8, 0x00000000)  returns 0x00 (0000ms, 0860ms total)
T08F4 000:921 JLINK_WriteReg(R9, 0x2000016C)  returns 0x00 (0000ms, 0860ms total)
T08F4 000:921 JLINK_WriteReg(R10, 0x00000000)  returns 0x00 (0000ms, 0860ms total)
T08F4 000:921 JLINK_WriteReg(R11, 0x00000000)  returns 0x00 (0000ms, 0860ms total)
T08F4 000:921 JLINK_WriteReg(R12, 0x00000000)  returns 0x00 (0000ms, 0860ms total)
T08F4 000:921 JLINK_WriteReg(R13, 0x20000800)  returns 0x00 (0000ms, 0860ms total)
T08F4 000:921 JLINK_WriteReg(R14, 0x20000001)  returns 0x00 (0001ms, 0860ms total)
T08F4 000:922 JLINK_WriteReg(R15, 0x20000074)  returns 0x00 (0000ms, 0861ms total)
T08F4 000:922 JLINK_WriteReg(XPSR, 0x01000000)  returns 0x00 (0000ms, 0861ms total)
T08F4 000:922 JLINK_WriteReg(MSP, 0x20000800)  returns 0x00 (0000ms, 0861ms total)
T08F4 000:922 JLINK_WriteReg(PSP, 0x20000800)  returns 0x00 (0000ms, 0861ms total)
T08F4 000:922 JLINK_WriteReg(CFBP, 0x00000000)  returns 0x00 (0000ms, 0861ms total)
T08F4 000:922 JLINK_SetBPEx(Addr = 0x20000000, Type = 0xFFFFFFF2)  returns 0x00000002 (0000ms, 0861ms total)
T08F4 000:922 JLINK_Go() -- CPU_WriteMem(4 bytes @ 0xE0002008) -- CPU_WriteMem(4 bytes @ 0xE000200C) -- CPU_WriteMem(4 bytes @ 0xE0002010) -- CPU_WriteMem(4 bytes @ 0xE0002014) (0007ms, 0861ms total)
T08F4 000:929 JLINK_IsHalted()  returns FALSE (0001ms, 0868ms total)
T08F4 000:980 JLINK_IsHalted() -- CPU_ReadMem(2 bytes @ 0x20000000)  returns TRUE (0005ms, 0868ms total)
T08F4 000:985 JLINK_ReadReg(R15)  returns 0x20000000 (0000ms, 0868ms total)
T08F4 000:985 JLINK_ClrBPEx(BPHandle = 0x00000002)  returns 0x00 (0000ms, 0868ms total)
T08F4 000:985 JLINK_ReadReg(R0)  returns 0x00000000 (0000ms, 0868ms total)
T08F4 001:036 JLINK_WriteReg(R0, 0x00000001)  returns 0x00 (0001ms, 0868ms total)
T08F4 001:037 JLINK_WriteReg(R1, 0x007A1200)  returns 0x00 (0000ms, 0869ms total)
T08F4 001:037 JLINK_WriteReg(R2, 0x00000001)  returns 0x00 (0000ms, 0869ms total)
T08F4 001:037 JLINK_WriteReg(R3, 0x00000000)  returns 0x00 (0000ms, 0869ms total)
T08F4 001:037 JLINK_WriteReg(R4, 0x00000000)  returns 0x00 (0000ms, 0869ms total)
T08F4 001:037 JLINK_WriteReg(R5, 0x00000000)  returns 0x00 (0000ms, 0869ms total)
T08F4 001:037 JLINK_WriteReg(R6, 0x00000000)  returns 0x00 (0000ms, 0869ms total)
T08F4 001:037 JLINK_WriteReg(R7, 0x00000000)  returns 0x00 (0000ms, 0869ms total)
T08F4 001:037 JLINK_WriteReg(R8, 0x00000000)  returns 0x00 (0000ms, 0869ms total)
T08F4 001:037 JLINK_WriteReg(R9, 0x2000016C)  returns 0x00 (0000ms, 0869ms total)
T08F4 001:037 JLINK_WriteReg(R10, 0x00000000)  returns 0x00 (0000ms, 0869ms total)
T08F4 001:037 JLINK_WriteReg(R11, 0x00000000)  returns 0x00 (0000ms, 0869ms total)
T08F4 001:037 JLINK_WriteReg(R12, 0x00000000)  returns 0x00 (0001ms, 0869ms total)
T08F4 001:038 JLINK_WriteReg(R13, 0x20000800)  returns 0x00 (0000ms, 0870ms total)
T08F4 001:038 JLINK_WriteReg(R14, 0x20000001)  returns 0x00 (0000ms, 0870ms total)
T08F4 001:038 JLINK_WriteReg(R15, 0x20000066)  returns 0x00 (0000ms, 0870ms total)
T08F4 001:038 JLINK_WriteReg(XPSR, 0x01000000)  returns 0x00 (0000ms, 0870ms total)
T08F4 001:038 JLINK_WriteReg(MSP, 0x20000800)  returns 0x00 (0000ms, 0870ms total)
T08F4 001:038 JLINK_WriteReg(PSP, 0x20000800)  returns 0x00 (0000ms, 0870ms total)
T08F4 001:038 JLINK_WriteReg(CFBP, 0x00000000)  returns 0x00 (0000ms, 0870ms total)
T08F4 001:038 JLINK_SetBPEx(Addr = 0x20000000, Type = 0xFFFFFFF2)  returns 0x00000003 (0000ms, 0870ms total)
T08F4 001:038 JLINK_Go() -- CPU_WriteMem(4 bytes @ 0xE0002008) -- CPU_WriteMem(4 bytes @ 0xE000200C) -- CPU_WriteMem(4 bytes @ 0xE0002010) -- CPU_WriteMem(4 bytes @ 0xE0002014) (0007ms, 0870ms total)
T08F4 001:045 JLINK_IsHalted() -- CPU_ReadMem(2 bytes @ 0x20000000)  returns TRUE (0005ms, 0877ms total)
T08F4 001:050 JLINK_ReadReg(R15)  returns 0x20000000 (0000ms, 0877ms total)
T08F4 001:050 JLINK_ClrBPEx(BPHandle = 0x00000003)  returns 0x00 (0000ms, 0877ms total)
T08F4 001:050 JLINK_ReadReg(R0)  returns 0x00000000 (0000ms, 0877ms total)
T08F4 001:056 JLINK_WriteMem(0x20000000, 0x0170 Bytes, ...) -- Data:  00 BE 0A E0 0D 78 2D 06 68 40 08 24 40 00 00 D3 ... -- CPU_WriteMem(368 bytes @ 0x20000000)  returns 0x170 (0004ms, 0877ms total)
T08F4 001:060 JLINK_WriteReg(R0, 0x08000000)  returns 0x00 (0000ms, 0881ms total)
T08F4 001:060 JLINK_WriteReg(R1, 0x007A1200)  returns 0x00 (0000ms, 0881ms total)
T08F4 001:060 JLINK_WriteReg(R2, 0x00000002)  returns 0x00 (0000ms, 0881ms total)
T08F4 001:060 JLINK_WriteReg(R3, 0x00000000)  returns 0x00 (0000ms, 0881ms total)
T08F4 001:060 JLINK_WriteReg(R4, 0x00000000)  returns 0x00 (0000ms, 0881ms total)
T08F4 001:060 JLINK_WriteReg(R5, 0x00000000)  returns 0x00 (0000ms, 0881ms total)
T08F4 001:060 JLINK_WriteReg(R6, 0x00000000)  returns 0x00 (0001ms, 0881ms total)
T08F4 001:061 JLINK_WriteReg(R7, 0x00000000)  returns 0x00 (0000ms, 0882ms total)
T08F4 001:061 JLINK_WriteReg(R8, 0x00000000)  returns 0x00 (0000ms, 0882ms total)
T08F4 001:061 JLINK_WriteReg(R9, 0x2000016C)  returns 0x00 (0000ms, 0882ms total)
T08F4 001:061 JLINK_WriteReg(R10, 0x00000000)  returns 0x00 (0000ms, 0882ms total)
T08F4 001:061 JLINK_WriteReg(R11, 0x00000000)  returns 0x00 (0000ms, 0882ms total)
T08F4 001:061 JLINK_WriteReg(R12, 0x00000000)  returns 0x00 (0000ms, 0882ms total)
T08F4 001:061 JLINK_WriteReg(R13, 0x20000800)  returns 0x00 (0000ms, 0882ms total)
T08F4 001:061 JLINK_WriteReg(R14, 0x20000001)  returns 0x00 (0000ms, 0882ms total)
T08F4 001:061 JLINK_WriteReg(R15, 0x20000038)  returns 0x00 (0000ms, 0882ms total)
T08F4 001:061 JLINK_WriteReg(XPSR, 0x01000000)  returns 0x00 (0000ms, 0882ms total)
T08F4 001:061 JLINK_WriteReg(MSP, 0x20000800)  returns 0x00 (0000ms, 0882ms total)
T08F4 001:061 JLINK_WriteReg(PSP, 0x20000800)  returns 0x00 (0000ms, 0882ms total)
T08F4 001:061 JLINK_WriteReg(CFBP, 0x00000000)  returns 0x00 (0000ms, 0882ms total)
T08F4 001:061 JLINK_SetBPEx(Addr = 0x20000000, Type = 0xFFFFFFF2) -- CPU_ReadMem(4 bytes @ 0x20000000) -- CPU_WriteMem(4 bytes @ 0x20000000) -- CPU_ReadMem(4 bytes @ 0x20000000) -- CPU_WriteMem(4 bytes @ 0x20000000) -- CPU_ReadMem(2 bytes @ 0x20000000)  returns 0x00000004 (0005ms, 0882ms total)
T08F4 001:066 JLINK_Go() -- CPU_WriteMem(2 bytes @ 0x20000000) -- CPU_WriteMem(4 bytes @ 0xE0002008) -- CPU_WriteMem(4 bytes @ 0xE000200C) -- CPU_WriteMem(4 bytes @ 0xE0002010) -- CPU_WriteMem(4 bytes @ 0xE0002014) (0008ms, 0887ms total)
T08F4 001:074 JLINK_IsHalted() -- CPU_ReadMem(2 bytes @ 0x20000000)  returns TRUE (0005ms, 0895ms total)
T08F4 001:079 JLINK_ReadReg(R15)  returns 0x20000000 (0000ms, 0895ms total)
T08F4 001:079 JLINK_ClrBPEx(BPHandle = 0x00000004)  returns 0x00 (0000ms, 0895ms total)
T08F4 001:079 JLINK_ReadReg(R0)  returns 0x00000000 (0000ms, 0895ms total)
T08F4 001:080 JLINK_WriteMem(0x20000170, 0x0290 Bytes, ...) -- Data:  70 08 00 20 79 45 00 08 81 45 00 08 83 45 00 08 ... -- CPU_WriteMem(656 bytes @ 0x20000170)  returns 0x290 (0007ms, 0895ms total)
T08F4 001:087 JLINK_WriteMem(0x20000400, 0x0170 Bytes, ...) -- Data:  02 20 88 81 00 20 C8 81 FF 20 01 30 08 82 00 20 ... -- CPU_WriteMem(368 bytes @ 0x20000400)  returns 0x170 (0005ms, 0902ms total)
T08F4 001:092 JLINK_WriteReg(R0, 0x08000000)  returns 0x00 (0000ms, 0907ms total)
T08F4 001:092 JLINK_WriteReg(R1, 0x00000400)  returns 0x00 (0000ms, 0907ms total)
T08F4 001:092 JLINK_WriteReg(R2, 0x20000170)  returns 0x00 (0000ms, 0907ms total)
T08F4 001:092 JLINK_WriteReg(R3, 0x00000000)  returns 0x00 (0000ms, 0907ms total)
T08F4 001:092 JLINK_WriteReg(R4, 0x00000000)  returns 0x00 (0000ms, 0907ms total)
T08F4 001:092 JLINK_WriteReg(R5, 0x00000000)  returns 0x00 (0000ms, 0907ms total)
T08F4 001:092 JLINK_WriteReg(R6, 0x00000000)  returns 0x00 (0000ms, 0907ms total)
T08F4 001:092 JLINK_WriteReg(R7, 0x00000000)  returns 0x00 (0000ms, 0907ms total)
T08F4 001:092 JLINK_WriteReg(R8, 0x00000000)  returns 0x00 (0000ms, 0907ms total)
T08F4 001:092 JLINK_WriteReg(R9, 0x2000016C)  returns 0x00 (0001ms, 0907ms total)
T08F4 001:093 JLINK_WriteReg(R10, 0x00000000)  returns 0x00 (0000ms, 0908ms total)
T08F4 001:093 JLINK_WriteReg(R11, 0x00000000)  returns 0x00 (0000ms, 0908ms total)
T08F4 001:093 JLINK_WriteReg(R12, 0x00000000)  returns 0x00 (0000ms, 0908ms total)
T08F4 001:093 JLINK_WriteReg(R13, 0x20000800)  returns 0x00 (0000ms, 0908ms total)
T08F4 001:093 JLINK_WriteReg(R14, 0x20000001)  returns 0x00 (0000ms, 0908ms total)
T08F4 001:093 JLINK_WriteReg(R15, 0x200000FA)  returns 0x00 (0000ms, 0908ms total)
T08F4 001:093 JLINK_WriteReg(XPSR, 0x01000000)  returns 0x00 (0000ms, 0908ms total)
T08F4 001:093 JLINK_WriteReg(MSP, 0x20000800)  returns 0x00 (0000ms, 0908ms total)
T08F4 001:093 JLINK_WriteReg(PSP, 0x20000800)  returns 0x00 (0000ms, 0908ms total)
T08F4 001:093 JLINK_WriteReg(CFBP, 0x00000000)  returns 0x00 (0000ms, 0908ms total)
T08F4 001:093 JLINK_SetBPEx(Addr = 0x20000000, Type = 0xFFFFFFF2)  returns 0x00000005 (0000ms, 0908ms total)
T08F4 001:093 JLINK_Go() -- CPU_WriteMem(4 bytes @ 0xE0002008) -- CPU_WriteMem(4 bytes @ 0xE000200C) -- CPU_WriteMem(4 bytes @ 0xE0002010) -- CPU_WriteMem(4 bytes @ 0xE0002014) (0007ms, 0908ms total)
T08F4 001:100 JLINK_IsHalted()  returns FALSE (0001ms, 0915ms total)
T08F4 001:151 JLINK_IsHalted() -- CPU_ReadMem(2 bytes @ 0x20000000)  returns TRUE (0005ms, 0915ms total)
T08F4 001:156 JLINK_ReadReg(R15)  returns 0x20000000 (0000ms, 0915ms total)
T08F4 001:156 JLINK_ClrBPEx(BPHandle = 0x00000005)  returns 0x00 (0000ms, 0915ms total)
T08F4 001:156 JLINK_ReadReg(R0)  returns 0x00000000 (0000ms, 0915ms total)
T08F4 001:157 JLINK_WriteMem(0x20000170, 0x0290 Bytes, ...) -- Data:  57 FC 07 22 80 21 5C 48 03 F0 52 FC 07 22 FF 21 ... -- CPU_WriteMem(656 bytes @ 0x20000170)  returns 0x290 (0007ms, 0915ms total)
T08F4 001:164 JLINK_WriteMem(0x20000400, 0x0170 Bytes, ...) -- Data:  08 80 05 E0 CA 48 00 88 CA 49 08 40 C8 49 08 80 ... -- CPU_WriteMem(368 bytes @ 0x20000400)  returns 0x170 (0005ms, 0922ms total)
T08F4 001:169 JLINK_WriteReg(R0, 0x08000400)  returns 0x00 (0000ms, 0927ms total)
T08F4 001:169 JLINK_WriteReg(R1, 0x00000400)  returns 0x00 (0000ms, 0927ms total)
T08F4 001:169 JLINK_WriteReg(R2, 0x20000170)  returns 0x00 (0000ms, 0927ms total)
T08F4 001:169 JLINK_WriteReg(R3, 0x00000000)  returns 0x00 (0000ms, 0927ms total)
T08F4 001:169 JLINK_WriteReg(R4, 0x00000000)  returns 0x00 (0000ms, 0927ms total)
T08F4 001:169 JLINK_WriteReg(R5, 0x00000000)  returns 0x00 (0000ms, 0927ms total)
T08F4 001:169 JLINK_WriteReg(R6, 0x00000000)  returns 0x00 (0000ms, 0927ms total)
T08F4 001:169 JLINK_WriteReg(R7, 0x00000000)  returns 0x00 (0000ms, 0927ms total)
T08F4 001:169 JLINK_WriteReg(R8, 0x00000000)  returns 0x00 (0000ms, 0927ms total)
T08F4 001:169 JLINK_WriteReg(R9, 0x2000016C)  returns 0x00 (0000ms, 0927ms total)
T08F4 001:169 JLINK_WriteReg(R10, 0x00000000)  returns 0x00 (0000ms, 0927ms total)
T08F4 001:169 JLINK_WriteReg(R11, 0x00000000)  returns 0x00 (0000ms, 0927ms total)
T08F4 001:169 JLINK_WriteReg(R12, 0x00000000)  returns 0x00 (0000ms, 0927ms total)
T08F4 001:169 JLINK_WriteReg(R13, 0x20000800)  returns 0x00 (0000ms, 0927ms total)
T08F4 001:169 JLINK_WriteReg(R14, 0x20000001)  returns 0x00 (0001ms, 0927ms total)
T08F4 001:170 JLINK_WriteReg(R15, 0x200000FA)  returns 0x00 (0000ms, 0928ms total)
T08F4 001:170 JLINK_WriteReg(XPSR, 0x01000000)  returns 0x00 (0000ms, 0928ms total)
T08F4 001:170 JLINK_WriteReg(MSP, 0x20000800)  returns 0x00 (0000ms, 0928ms total)
T08F4 001:170 JLINK_WriteReg(PSP, 0x20000800)  returns 0x00 (0000ms, 0928ms total)
T08F4 001:170 JLINK_WriteReg(CFBP, 0x00000000)  returns 0x00 (0000ms, 0928ms total)
T08F4 001:170 JLINK_SetBPEx(Addr = 0x20000000, Type = 0xFFFFFFF2)  returns 0x00000006 (0000ms, 0928ms total)
T08F4 001:170 JLINK_Go() -- CPU_WriteMem(4 bytes @ 0xE0002008) -- CPU_WriteMem(4 bytes @ 0xE000200C) -- CPU_WriteMem(4 bytes @ 0xE0002010) -- CPU_WriteMem(4 bytes @ 0xE0002014) (0008ms, 0928ms total)
T08F4 001:178 JLINK_IsHalted()  returns FALSE (0001ms, 0936ms total)
T08F4 001:229 JLINK_IsHalted() -- CPU_ReadMem(2 bytes @ 0x20000000)  returns TRUE (0005ms, 0936ms total)
T08F4 001:234 JLINK_ReadReg(R15)  returns 0x20000000 (0000ms, 0936ms total)
T08F4 001:234 JLINK_ClrBPEx(BPHandle = 0x00000006)  returns 0x00 (0000ms, 0936ms total)
T08F4 001:234 JLINK_ReadReg(R0)  returns 0x00000000 (0000ms, 0936ms total)
T08F4 001:235 JLINK_WriteMem(0x20000170, 0x0290 Bytes, ...) -- Data:  12 78 91 11 CA 0F 52 18 52 10 52 00 8A 1A 15 D1 ... -- CPU_WriteMem(656 bytes @ 0x20000170)  returns 0x290 (0007ms, 0936ms total)
T08F4 001:242 JLINK_WriteMem(0x20000400, 0x0170 Bytes, ...) -- Data:  00 68 03 F0 8B FE C8 B2 D6 49 48 70 D6 48 80 78 ... -- CPU_WriteMem(368 bytes @ 0x20000400)  returns 0x170 (0005ms, 0943ms total)
T08F4 001:247 JLINK_WriteReg(R0, 0x08000800)  returns 0x00 (0000ms, 0948ms total)
T08F4 001:247 JLINK_WriteReg(R1, 0x00000400)  returns 0x00 (0000ms, 0948ms total)
T08F4 001:247 JLINK_WriteReg(R2, 0x20000170)  returns 0x00 (0000ms, 0948ms total)
T08F4 001:247 JLINK_WriteReg(R3, 0x00000000)  returns 0x00 (0000ms, 0948ms total)
T08F4 001:247 JLINK_WriteReg(R4, 0x00000000)  returns 0x00 (0000ms, 0948ms total)
T08F4 001:247 JLINK_WriteReg(R5, 0x00000000)  returns 0x00 (0000ms, 0948ms total)
T08F4 001:247 JLINK_WriteReg(R6, 0x00000000)  returns 0x00 (0000ms, 0948ms total)
T08F4 001:247 JLINK_WriteReg(R7, 0x00000000)  returns 0x00 (0000ms, 0948ms total)
T08F4 001:247 JLINK_WriteReg(R8, 0x00000000)  returns 0x00 (0000ms, 0948ms total)
T08F4 001:247 JLINK_WriteReg(R9, 0x2000016C)  returns 0x00 (0000ms, 0948ms total)
T08F4 001:247 JLINK_WriteReg(R10, 0x00000000)  returns 0x00 (0000ms, 0948ms total)
T08F4 001:247 JLINK_WriteReg(R11, 0x00000000)  returns 0x00 (0000ms, 0948ms total)
T08F4 001:247 JLINK_WriteReg(R12, 0x00000000)  returns 0x00 (0000ms, 0948ms total)
T08F4 001:247 JLINK_WriteReg(R13, 0x20000800)  returns 0x00 (0000ms, 0948ms total)
T08F4 001:247 JLINK_WriteReg(R14, 0x20000001)  returns 0x00 (0000ms, 0948ms total)
T08F4 001:247 JLINK_WriteReg(R15, 0x200000FA)  returns 0x00 (0000ms, 0948ms total)
T08F4 001:247 JLINK_WriteReg(XPSR, 0x01000000)  returns 0x00 (0000ms, 0948ms total)
T08F4 001:247 JLINK_WriteReg(MSP, 0x20000800)  returns 0x00 (0000ms, 0948ms total)
T08F4 001:248 JLINK_WriteReg(PSP, 0x20000800)  returns 0x00 (0000ms, 0949ms total)
T08F4 001:248 JLINK_WriteReg(CFBP, 0x00000000)  returns 0x00 (0000ms, 0949ms total)
T08F4 001:248 JLINK_SetBPEx(Addr = 0x20000000, Type = 0xFFFFFFF2)  returns 0x00000007 (0000ms, 0949ms total)
T08F4 001:248 JLINK_Go() -- CPU_WriteMem(4 bytes @ 0xE0002008) -- CPU_WriteMem(4 bytes @ 0xE000200C) -- CPU_WriteMem(4 bytes @ 0xE0002010) -- CPU_WriteMem(4 bytes @ 0xE0002014) (0007ms, 0949ms total)
T08F4 001:255 JLINK_IsHalted()  returns FALSE (0001ms, 0956ms total)
T08F4 001:306 JLINK_IsHalted() -- CPU_ReadMem(2 bytes @ 0x20000000)  returns TRUE (0005ms, 0956ms total)
T08F4 001:311 JLINK_ReadReg(R15)  returns 0x20000000 (0000ms, 0956ms total)
T08F4 001:311 JLINK_ClrBPEx(BPHandle = 0x00000007)  returns 0x00 (0000ms, 0956ms total)
T08F4 001:312 JLINK_ReadReg(R0)  returns 0x00000000 (0000ms, 0957ms total)
T08F4 001:312 JLINK_WriteMem(0x20000170, 0x0290 Bytes, ...) -- Data:  08 80 08 46 00 88 83 49 08 40 7D 49 08 80 77 48 ... -- CPU_WriteMem(656 bytes @ 0x20000170)  returns 0x290 (0008ms, 0957ms total)
T08F4 001:320 JLINK_WriteMem(0x20000400, 0x0170 Bytes, ...) -- Data:  13 DC 14 20 E5 49 88 70 C8 70 E0 48 00 78 11 28 ... -- CPU_WriteMem(368 bytes @ 0x20000400)  returns 0x170 (0005ms, 0965ms total)
T08F4 001:325 JLINK_WriteReg(R0, 0x08000C00)  returns 0x00 (0000ms, 0970ms total)
T08F4 001:325 JLINK_WriteReg(R1, 0x00000400)  returns 0x00 (0000ms, 0970ms total)
T08F4 001:325 JLINK_WriteReg(R2, 0x20000170)  returns 0x00 (0000ms, 0970ms total)
T08F4 001:325 JLINK_WriteReg(R3, 0x00000000)  returns 0x00 (0000ms, 0970ms total)
T08F4 001:325 JLINK_WriteReg(R4, 0x00000000)  returns 0x00 (0000ms, 0970ms total)
T08F4 001:325 JLINK_WriteReg(R5, 0x00000000)  returns 0x00 (0000ms, 0970ms total)
T08F4 001:325 JLINK_WriteReg(R6, 0x00000000)  returns 0x00 (0000ms, 0970ms total)
T08F4 001:325 JLINK_WriteReg(R7, 0x00000000)  returns 0x00 (0000ms, 0970ms total)
T08F4 001:325 JLINK_WriteReg(R8, 0x00000000)  returns 0x00 (0000ms, 0970ms total)
T08F4 001:325 JLINK_WriteReg(R9, 0x2000016C)  returns 0x00 (0000ms, 0970ms total)
T08F4 001:325 JLINK_WriteReg(R10, 0x00000000)  returns 0x00 (0000ms, 0970ms total)
T08F4 001:325 JLINK_WriteReg(R11, 0x00000000)  returns 0x00 (0000ms, 0970ms total)
T08F4 001:325 JLINK_WriteReg(R12, 0x00000000)  returns 0x00 (0000ms, 0970ms total)
T08F4 001:325 JLINK_WriteReg(R13, 0x20000800)  returns 0x00 (0000ms, 0970ms total)
T08F4 001:325 JLINK_WriteReg(R14, 0x20000001)  returns 0x00 (0000ms, 0970ms total)
T08F4 001:325 JLINK_WriteReg(R15, 0x200000FA)  returns 0x00 (0000ms, 0970ms total)
T08F4 001:325 JLINK_WriteReg(XPSR, 0x01000000)  returns 0x00 (0000ms, 0970ms total)
T08F4 001:325 JLINK_WriteReg(MSP, 0x20000800)  returns 0x00 (0000ms, 0970ms total)
T08F4 001:325 JLINK_WriteReg(PSP, 0x20000800)  returns 0x00 (0000ms, 0970ms total)
T08F4 001:325 JLINK_WriteReg(CFBP, 0x00000000)  returns 0x00 (0000ms, 0970ms total)
T08F4 001:325 JLINK_SetBPEx(Addr = 0x20000000, Type = 0xFFFFFFF2)  returns 0x00000008 (0001ms, 0970ms total)
T08F4 001:326 JLINK_Go() -- CPU_WriteMem(4 bytes @ 0xE0002008) -- CPU_WriteMem(4 bytes @ 0xE000200C) -- CPU_WriteMem(4 bytes @ 0xE0002010) -- CPU_WriteMem(4 bytes @ 0xE0002014) (0007ms, 0971ms total)
T08F4 001:333 JLINK_IsHalted()  returns FALSE (0002ms, 0978ms total)
T08F4 001:385 JLINK_IsHalted() -- CPU_ReadMem(2 bytes @ 0x20000000)  returns TRUE (0005ms, 0978ms total)
T08F4 001:390 JLINK_ReadReg(R15)  returns 0x20000000 (0000ms, 0978ms total)
T08F4 001:390 JLINK_ClrBPEx(BPHandle = 0x00000008)  returns 0x00 (0000ms, 0978ms total)
T08F4 001:390 JLINK_ReadReg(R0)  returns 0x00000000 (0000ms, 0978ms total)
T08F4 001:391 JLINK_WriteMem(0x20000170, 0x0290 Bytes, ...) -- Data:  00 88 88 49 08 40 86 49 08 80 08 46 00 88 86 49 ... -- CPU_WriteMem(656 bytes @ 0x20000170)  returns 0x290 (0007ms, 0978ms total)
T08F4 001:398 JLINK_WriteMem(0x20000400, 0x0170 Bytes, ...) -- Data:  00 88 F5 49 08 40 F0 49 08 80 F4 48 00 88 EF 49 ... -- CPU_WriteMem(368 bytes @ 0x20000400)  returns 0x170 (0005ms, 0985ms total)
T08F4 001:403 JLINK_WriteReg(R0, 0x08001000)  returns 0x00 (0000ms, 0990ms total)
T08F4 001:403 JLINK_WriteReg(R1, 0x00000400)  returns 0x00 (0000ms, 0990ms total)
T08F4 001:403 JLINK_WriteReg(R2, 0x20000170)  returns 0x00 (0000ms, 0990ms total)
T08F4 001:403 JLINK_WriteReg(R3, 0x00000000)  returns 0x00 (0000ms, 0990ms total)
T08F4 001:403 JLINK_WriteReg(R4, 0x00000000)  returns 0x00 (0000ms, 0990ms total)
T08F4 001:403 JLINK_WriteReg(R5, 0x00000000)  returns 0x00 (0000ms, 0990ms total)
T08F4 001:403 JLINK_WriteReg(R6, 0x00000000)  returns 0x00 (0000ms, 0990ms total)
T08F4 001:403 JLINK_WriteReg(R7, 0x00000000)  returns 0x00 (0000ms, 0990ms total)
T08F4 001:403 JLINK_WriteReg(R8, 0x00000000)  returns 0x00 (0000ms, 0990ms total)
T08F4 001:403 JLINK_WriteReg(R9, 0x2000016C)  returns 0x00 (0001ms, 0990ms total)
T08F4 001:404 JLINK_WriteReg(R10, 0x00000000)  returns 0x00 (0000ms, 0991ms total)
T08F4 001:404 JLINK_WriteReg(R11, 0x00000000)  returns 0x00 (0000ms, 0991ms total)
T08F4 001:404 JLINK_WriteReg(R12, 0x00000000)  returns 0x00 (0000ms, 0991ms total)
T08F4 001:404 JLINK_WriteReg(R13, 0x20000800)  returns 0x00 (0000ms, 0991ms total)
T08F4 001:404 JLINK_WriteReg(R14, 0x20000001)  returns 0x00 (0000ms, 0991ms total)
T08F4 001:404 JLINK_WriteReg(R15, 0x200000FA)  returns 0x00 (0000ms, 0991ms total)
T08F4 001:404 JLINK_WriteReg(XPSR, 0x01000000)  returns 0x00 (0000ms, 0991ms total)
T08F4 001:404 JLINK_WriteReg(MSP, 0x20000800)  returns 0x00 (0000ms, 0991ms total)
T08F4 001:404 JLINK_WriteReg(PSP, 0x20000800)  returns 0x00 (0000ms, 0991ms total)
T08F4 001:404 JLINK_WriteReg(CFBP, 0x00000000)  returns 0x00 (0000ms, 0991ms total)
T08F4 001:404 JLINK_SetBPEx(Addr = 0x20000000, Type = 0xFFFFFFF2)  returns 0x00000009 (0000ms, 0991ms total)
T08F4 001:404 JLINK_Go() -- CPU_WriteMem(4 bytes @ 0xE0002008) -- CPU_WriteMem(4 bytes @ 0xE000200C) -- CPU_WriteMem(4 bytes @ 0xE0002010) -- CPU_WriteMem(4 bytes @ 0xE0002014) (0007ms, 0991ms total)
T08F4 001:411 JLINK_IsHalted()  returns FALSE (0001ms, 0998ms total)
T08F4 001:462 JLINK_IsHalted() -- CPU_ReadMem(2 bytes @ 0x20000000)  returns TRUE (0005ms, 0998ms total)
T08F4 001:467 JLINK_ReadReg(R15)  returns 0x20000000 (0000ms, 0998ms total)
T08F4 001:467 JLINK_ClrBPEx(BPHandle = 0x00000009)  returns 0x00 (0000ms, 0998ms total)
T08F4 001:467 JLINK_ReadReg(R0)  returns 0x00000000 (0000ms, 0998ms total)
T08F4 001:468 JLINK_WriteMem(0x20000170, 0x0290 Bytes, ...) -- Data:  04 21 88 43 9E 49 48 70 9D 48 80 78 80 21 08 43 ... -- CPU_WriteMem(656 bytes @ 0x20000170)  returns 0x290 (0007ms, 0998ms total)
T08F4 001:475 JLINK_WriteMem(0x20000400, 0x0170 Bytes, ...) -- Data:  29 01 00 20 09 00 00 20 0A 01 00 20 2B 01 00 20 ... -- CPU_WriteMem(368 bytes @ 0x20000400)  returns 0x170 (0005ms, 1005ms total)
T08F4 001:480 JLINK_WriteReg(R0, 0x08001400)  returns 0x00 (0000ms, 1010ms total)
T08F4 001:480 JLINK_WriteReg(R1, 0x00000400)  returns 0x00 (0000ms, 1010ms total)
T08F4 001:480 JLINK_WriteReg(R2, 0x20000170)  returns 0x00 (0000ms, 1010ms total)
T08F4 001:480 JLINK_WriteReg(R3, 0x00000000)  returns 0x00 (0000ms, 1010ms total)
T08F4 001:480 JLINK_WriteReg(R4, 0x00000000)  returns 0x00 (0000ms, 1010ms total)
T08F4 001:480 JLINK_WriteReg(R5, 0x00000000)  returns 0x00 (0000ms, 1010ms total)
T08F4 001:480 JLINK_WriteReg(R6, 0x00000000)  returns 0x00 (0000ms, 1010ms total)
T08F4 001:480 JLINK_WriteReg(R7, 0x00000000)  returns 0x00 (0000ms, 1010ms total)
T08F4 001:480 JLINK_WriteReg(R8, 0x00000000)  returns 0x00 (0000ms, 1010ms total)
T08F4 001:480 JLINK_WriteReg(R9, 0x2000016C)  returns 0x00 (0001ms, 1010ms total)
T08F4 001:481 JLINK_WriteReg(R10, 0x00000000)  returns 0x00 (0000ms, 1011ms total)
T08F4 001:481 JLINK_WriteReg(R11, 0x00000000)  returns 0x00 (0000ms, 1011ms total)
T08F4 001:481 JLINK_WriteReg(R12, 0x00000000)  returns 0x00 (0000ms, 1011ms total)
T08F4 001:481 JLINK_WriteReg(R13, 0x20000800)  returns 0x00 (0000ms, 1011ms total)
T08F4 001:481 JLINK_WriteReg(R14, 0x20000001)  returns 0x00 (0000ms, 1011ms total)
T08F4 001:481 JLINK_WriteReg(R15, 0x200000FA)  returns 0x00 (0000ms, 1011ms total)
T08F4 001:481 JLINK_WriteReg(XPSR, 0x01000000)  returns 0x00 (0000ms, 1011ms total)
T08F4 001:481 JLINK_WriteReg(MSP, 0x20000800)  returns 0x00 (0000ms, 1011ms total)
T08F4 001:481 JLINK_WriteReg(PSP, 0x20000800)  returns 0x00 (0000ms, 1011ms total)
T08F4 001:481 JLINK_WriteReg(CFBP, 0x00000000)  returns 0x00 (0000ms, 1011ms total)
T08F4 001:481 JLINK_SetBPEx(Addr = 0x20000000, Type = 0xFFFFFFF2)  returns 0x0000000A (0000ms, 1011ms total)
T08F4 001:481 JLINK_Go() -- CPU_WriteMem(4 bytes @ 0xE0002008) -- CPU_WriteMem(4 bytes @ 0xE000200C) -- CPU_WriteMem(4 bytes @ 0xE0002010) -- CPU_WriteMem(4 bytes @ 0xE0002014) (0007ms, 1011ms total)
T08F4 001:488 JLINK_IsHalted()  returns FALSE (0001ms, 1018ms total)
T08F4 001:539 JLINK_IsHalted() -- CPU_ReadMem(2 bytes @ 0x20000000)  returns TRUE (0005ms, 1018ms total)
T08F4 001:544 JLINK_ReadReg(R15)  returns 0x20000000 (0000ms, 1018ms total)
T08F4 001:544 JLINK_ClrBPEx(BPHandle = 0x0000000A)  returns 0x00 (0000ms, 1018ms total)
T08F4 001:544 JLINK_ReadReg(R0)  returns 0x00000000 (0000ms, 1018ms total)
T08F4 001:545 JLINK_WriteMem(0x20000170, 0x0290 Bytes, ...) -- Data:  48 70 0C 20 88 70 A3 49 09 78 48 10 C1 0F 09 18 ... -- CPU_WriteMem(656 bytes @ 0x20000170)  returns 0x290 (0007ms, 1018ms total)
T08F4 001:552 JLINK_WriteMem(0x20000400, 0x0170 Bytes, ...) -- Data:  64 E0 00 00 00 00 00 20 27 01 00 20 19 01 00 20 ... -- CPU_WriteMem(368 bytes @ 0x20000400)  returns 0x170 (0005ms, 1025ms total)
T08F4 001:557 JLINK_WriteReg(R0, 0x08001800)  returns 0x00 (0000ms, 1030ms total)
T08F4 001:557 JLINK_WriteReg(R1, 0x00000400)  returns 0x00 (0000ms, 1030ms total)
T08F4 001:557 JLINK_WriteReg(R2, 0x20000170)  returns 0x00 (0000ms, 1030ms total)
T08F4 001:557 JLINK_WriteReg(R3, 0x00000000)  returns 0x00 (0000ms, 1030ms total)
T08F4 001:557 JLINK_WriteReg(R4, 0x00000000)  returns 0x00 (0000ms, 1030ms total)
T08F4 001:557 JLINK_WriteReg(R5, 0x00000000)  returns 0x00 (0000ms, 1030ms total)
T08F4 001:557 JLINK_WriteReg(R6, 0x00000000)  returns 0x00 (0000ms, 1030ms total)
T08F4 001:557 JLINK_WriteReg(R7, 0x00000000)  returns 0x00 (0000ms, 1030ms total)
T08F4 001:557 JLINK_WriteReg(R8, 0x00000000)  returns 0x00 (0000ms, 1030ms total)
T08F4 001:557 JLINK_WriteReg(R9, 0x2000016C)  returns 0x00 (0000ms, 1030ms total)
T08F4 001:558 JLINK_WriteReg(R10, 0x00000000)  returns 0x00 (0000ms, 1031ms total)
T08F4 001:558 JLINK_WriteReg(R11, 0x00000000)  returns 0x00 (0000ms, 1031ms total)
T08F4 001:558 JLINK_WriteReg(R12, 0x00000000)  returns 0x00 (0000ms, 1031ms total)
T08F4 001:558 JLINK_WriteReg(R13, 0x20000800)  returns 0x00 (0000ms, 1031ms total)
T08F4 001:558 JLINK_WriteReg(R14, 0x20000001)  returns 0x00 (0000ms, 1031ms total)
T08F4 001:558 JLINK_WriteReg(R15, 0x200000FA)  returns 0x00 (0000ms, 1031ms total)
T08F4 001:558 JLINK_WriteReg(XPSR, 0x01000000)  returns 0x00 (0000ms, 1031ms total)
T08F4 001:558 JLINK_WriteReg(MSP, 0x20000800)  returns 0x00 (0000ms, 1031ms total)
T08F4 001:558 JLINK_WriteReg(PSP, 0x20000800)  returns 0x00 (0000ms, 1031ms total)
T08F4 001:558 JLINK_WriteReg(CFBP, 0x00000000)  returns 0x00 (0000ms, 1031ms total)
T08F4 001:558 JLINK_SetBPEx(Addr = 0x20000000, Type = 0xFFFFFFF2)  returns 0x0000000B (0000ms, 1031ms total)
T08F4 001:558 JLINK_Go() -- CPU_WriteMem(4 bytes @ 0xE0002008) -- CPU_WriteMem(4 bytes @ 0xE000200C) -- CPU_WriteMem(4 bytes @ 0xE0002010) -- CPU_WriteMem(4 bytes @ 0xE0002014) (0007ms, 1031ms total)
T08F4 001:565 JLINK_IsHalted()  returns FALSE (0001ms, 1038ms total)
T08F4 001:616 JLINK_IsHalted() -- CPU_ReadMem(2 bytes @ 0x20000000)  returns TRUE (0005ms, 1038ms total)
T08F4 001:621 JLINK_ReadReg(R15)  returns 0x20000000 (0000ms, 1038ms total)
T08F4 001:621 JLINK_ClrBPEx(BPHandle = 0x0000000B)  returns 0x00 (0000ms, 1038ms total)
T08F4 001:621 JLINK_ReadReg(R0)  returns 0x00000000 (0000ms, 1038ms total)
T08F4 001:622 JLINK_WriteMem(0x20000170, 0x0290 Bytes, ...) -- Data:  00 78 03 28 03 D1 BA 48 C0 78 00 28 0F D0 B4 48 ... -- CPU_WriteMem(656 bytes @ 0x20000170)  returns 0x290 (0007ms, 1038ms total)
T08F4 001:629 JLINK_WriteMem(0x20000400, 0x0170 Bytes, ...) -- Data:  C0 06 80 8A C0 B2 09 21 C9 06 88 82 1E 48 80 8A ... -- CPU_WriteMem(368 bytes @ 0x20000400)  returns 0x170 (0005ms, 1045ms total)
T08F4 001:634 JLINK_WriteReg(R0, 0x08001C00)  returns 0x00 (0000ms, 1050ms total)
T08F4 001:634 JLINK_WriteReg(R1, 0x00000400)  returns 0x00 (0000ms, 1050ms total)
T08F4 001:634 JLINK_WriteReg(R2, 0x20000170)  returns 0x00 (0000ms, 1050ms total)
T08F4 001:634 JLINK_WriteReg(R3, 0x00000000)  returns 0x00 (0000ms, 1050ms total)
T08F4 001:634 JLINK_WriteReg(R4, 0x00000000)  returns 0x00 (0000ms, 1050ms total)
T08F4 001:634 JLINK_WriteReg(R5, 0x00000000)  returns 0x00 (0000ms, 1050ms total)
T08F4 001:634 JLINK_WriteReg(R6, 0x00000000)  returns 0x00 (0000ms, 1050ms total)
T08F4 001:634 JLINK_WriteReg(R7, 0x00000000)  returns 0x00 (0000ms, 1050ms total)
T08F4 001:634 JLINK_WriteReg(R8, 0x00000000)  returns 0x00 (0000ms, 1050ms total)
T08F4 001:634 JLINK_WriteReg(R9, 0x2000016C)  returns 0x00 (0000ms, 1050ms total)
T08F4 001:634 JLINK_WriteReg(R10, 0x00000000)  returns 0x00 (0000ms, 1050ms total)
T08F4 001:635 JLINK_WriteReg(R11, 0x00000000)  returns 0x00 (0000ms, 1051ms total)
T08F4 001:635 JLINK_WriteReg(R12, 0x00000000)  returns 0x00 (0000ms, 1051ms total)
T08F4 001:635 JLINK_WriteReg(R13, 0x20000800)  returns 0x00 (0000ms, 1051ms total)
T08F4 001:635 JLINK_WriteReg(R14, 0x20000001)  returns 0x00 (0000ms, 1051ms total)
T08F4 001:635 JLINK_WriteReg(R15, 0x200000FA)  returns 0x00 (0000ms, 1051ms total)
T08F4 001:635 JLINK_WriteReg(XPSR, 0x01000000)  returns 0x00 (0000ms, 1051ms total)
T08F4 001:635 JLINK_WriteReg(MSP, 0x20000800)  returns 0x00 (0000ms, 1051ms total)
T08F4 001:635 JLINK_WriteReg(PSP, 0x20000800)  returns 0x00 (0000ms, 1051ms total)
T08F4 001:635 JLINK_WriteReg(CFBP, 0x00000000)  returns 0x00 (0000ms, 1051ms total)
T08F4 001:635 JLINK_SetBPEx(Addr = 0x20000000, Type = 0xFFFFFFF2)  returns 0x0000000C (0000ms, 1051ms total)
T08F4 001:635 JLINK_Go() -- CPU_WriteMem(4 bytes @ 0xE0002008) -- CPU_WriteMem(4 bytes @ 0xE000200C) -- CPU_WriteMem(4 bytes @ 0xE0002010) -- CPU_WriteMem(4 bytes @ 0xE0002014) (0007ms, 1051ms total)
